<Qucs Dataset >
<indep frequency 300>
  +6.00000000000000000000e+08
  +7.98662207357859492302e+08
  +9.97324414715718984604e+08
  +1.19598662207357859612e+09
  +1.39464882943143796921e+09
  +1.59331103678929758072e+09
  +1.79197324414715719223e+09
  +1.99063545150501656532e+09
  +2.18929765886287593842e+09
  +2.38795986622073554993e+09
  +2.58662207357859516144e+09
  +2.78528428093645477295e+09
  +2.98394648829431438446e+09
  +3.18260869565217399597e+09
  +3.38127090301003313065e+09
  +3.57993311036789274216e+09
  +3.77859531772575235367e+09
  +3.97725752508361196518e+09
  +4.17591973244147157669e+09
  +4.37458193979933071136e+09
  +4.57324414715719032288e+09
  +4.77190635451504993439e+09
  +4.97056856187290954590e+09
  +5.16923076923076915741e+09
  +5.36789297658862876892e+09
  +5.56655518394648838043e+09
  +5.76521739130434799194e+09
  +5.96387959866220664978e+09
  +6.16254180602006626129e+09
  +6.36120401337792587280e+09
  +6.55986622073578548431e+09
  +6.75852842809364509583e+09
  +6.95719063545150470734e+09
  +7.15585284280936431885e+09
  +7.35451505016722393036e+09
  +7.55317725752508354187e+09
  +7.75183946488294315338e+09
  +7.95050167224080276489e+09
  +8.14916387959866142273e+09
  +8.34782608695652103424e+09
  +8.54648829431438064575e+09
  +8.74515050167224121094e+09
  +8.94381270903009986877e+09
  +9.14247491638795852661e+09
  +9.34113712374581909180e+09
  +9.53979933110367774963e+09
  +9.73846153846153831482e+09
  +9.93712374581939697266e+09
  +1.01357859531772575378e+10
  +1.03344481605351161957e+10
  +1.05331103678929767609e+10
  +1.07317725752508354187e+10
  +1.09304347826086959839e+10
  +1.11290969899665546417e+10
  +1.13277591973244132996e+10
  +1.15264214046822738647e+10
  +1.17250836120401325226e+10
  +1.19237458193979930878e+10
  +1.21224080267558517456e+10
  +1.23210702341137123108e+10
  +1.25197324414715709686e+10
  +1.27183946488294315338e+10
  +1.29170568561872901917e+10
  +1.31157190635451507568e+10
  +1.33143812709030094147e+10
  +1.35130434782608680725e+10
  +1.37117056856187286377e+10
  +1.39103678929765872955e+10
  +1.41090301003344478607e+10
  +1.43076923076923065186e+10
  +1.45063545150501670837e+10
  +1.47050167224080257416e+10
  +1.49036789297658863068e+10
  +1.51023411371237449646e+10
  +1.53010033444816055298e+10
  +1.54996655518394641876e+10
  +1.56983277591973228455e+10
  +1.58969899665551834106e+10
  +1.60956521739130420685e+10
  +1.62943143812709026337e+10
  +1.64929765886287612915e+10
  +1.66916387959866218567e+10
  +1.68903010033444805145e+10
  +1.70889632107023410797e+10
  +1.72876254180601997375e+10
  +1.74862876254180603027e+10
  +1.76849498327759170532e+10
  +1.78836120401337776184e+10
  +1.80822742474916381836e+10
  +1.82809364548494987488e+10
  +1.84795986622073554993e+10
  +1.86782608695652160645e+10
  +1.88769230769230766296e+10
  +1.90755852842809371948e+10
  +1.92742474916387939453e+10
  +1.94729096989966545105e+10
  +1.96715719063545150757e+10
  +1.98702341137123718262e+10
  +2.00688963210702323914e+10
  +2.02675585284280929565e+10
  +2.04662207357859535217e+10
  +2.06648829431438102722e+10
  +2.08635451505016708374e+10
  +2.10622073578595314026e+10
  +2.12608695652173919678e+10
  +2.14595317725752487183e+10
  +2.16581939799331092834e+10
  +2.18568561872909698486e+10
  +2.20555183946488265991e+10
  +2.22541806020066871643e+10
  +2.24528428093645477295e+10
  +2.26515050167224082947e+10
  +2.28501672240802650452e+10
  +2.30488294314381256104e+10
  +2.32474916387959861755e+10
  +2.34461538461538467407e+10
  +2.36448160535117034912e+10
  +2.38434782608695640564e+10
  +2.40421404682274246216e+10
  +2.42408026755852813721e+10
  +2.44394648829431419373e+10
  +2.46381270903010025024e+10
  +2.48367892976588630676e+10
  +2.50354515050167198181e+10
  +2.52341137123745803833e+10
  +2.54327759197324409485e+10
  +2.56314381270903015137e+10
  +2.58301003344481582642e+10
  +2.60287625418060188293e+10
  +2.62274247491638793945e+10
  +2.64260869565217361450e+10
  +2.66247491638795967102e+10
  +2.68234113712374572754e+10
  +2.70220735785953178406e+10
  +2.72207357859531745911e+10
  +2.74193979933110351562e+10
  +2.76180602006688957214e+10
  +2.78167224080267562866e+10
  +2.80153846153846130371e+10
  +2.82140468227424736023e+10
  +2.84127090301003341675e+10
  +2.86113712374581909180e+10
  +2.88100334448160514832e+10
  +2.90086956521739120483e+10
  +2.92073578595317726135e+10
  +2.94060200668896293640e+10
  +2.96046822742474899292e+10
  +2.98033444816053504944e+10
  +3.00020066889632110596e+10
  +3.02006688963210678101e+10
  +3.03993311036789283752e+10
  +3.05979933110367889404e+10
  +3.07966555183946456909e+10
  +3.09953177257525062561e+10
  +3.11939799331103668213e+10
  +3.13926421404682273865e+10
  +3.15913043478260841370e+10
  +3.17899665551839447021e+10
  +3.19886287625418052673e+10
  +3.21872909698996658325e+10
  +3.23859531772575225830e+10
  +3.25846153846153831482e+10
  +3.27832775919732437134e+10
  +3.29819397993311004639e+10
  +3.31806020066889610291e+10
  +3.33792642140468215942e+10
  +3.35779264214046821594e+10
  +3.37765886287625389099e+10
  +3.39752508361203994751e+10
  +3.41739130434782600403e+10
  +3.43725752508361206055e+10
  +3.45712374581939773560e+10
  +3.47698996655518341064e+10
  +3.49685618729096984863e+10
  +3.51672240802675552368e+10
  +3.53658862876254196167e+10
  +3.55645484949832763672e+10
  +3.57632107023411331177e+10
  +3.59618729096989974976e+10
  +3.61605351170568542480e+10
  +3.63591973244147109985e+10
  +3.65578595317725753784e+10
  +3.67565217391304321289e+10
  +3.69551839464882888794e+10
  +3.71538461538461532593e+10
  +3.73525083612040100098e+10
  +3.75511705685618743896e+10
  +3.77498327759197311401e+10
  +3.79484949832775878906e+10
  +3.81471571906354522705e+10
  +3.83458193979933090210e+10
  +3.85444816053511657715e+10
  +3.87431438127090301514e+10
  +3.89418060200668869019e+10
  +3.91404682274247436523e+10
  +3.93391304347826080322e+10
  +3.95377926421404647827e+10
  +3.97364548494983291626e+10
  +3.99351170568561859131e+10
  +4.01337792642140426636e+10
  +4.03324414715719070435e+10
  +4.05311036789297637939e+10
  +4.07297658862876205444e+10
  +4.09284280936454849243e+10
  +4.11270903010033416748e+10
  +4.13257525083611984253e+10
  +4.15244147157190628052e+10
  +4.17230769230769195557e+10
  +4.19217391304347839355e+10
  +4.21204013377926406860e+10
  +4.23190635451504974365e+10
  +4.25177257525083618164e+10
  +4.27163879598662185669e+10
  +4.29150501672240753174e+10
  +4.31137123745819396973e+10
  +4.33123745819397964478e+10
  +4.35110367892976531982e+10
  +4.37096989966555175781e+10
  +4.39083612040133743286e+10
  +4.41070234113712387085e+10
  +4.43056856187290954590e+10
  +4.45043478260869522095e+10
  +4.47030100334448165894e+10
  +4.49016722408026733398e+10
  +4.51003344481605300903e+10
  +4.52989966555183944702e+10
  +4.54976588628762512207e+10
  +4.56963210702341079712e+10
  +4.58949832775919723511e+10
  +4.60936454849498291016e+10
  +4.62923076923076934814e+10
  +4.64909698996655502319e+10
  +4.66896321070234069824e+10
  +4.68882943143812713623e+10
  +4.70869565217391281128e+10
  +4.72856187290969848633e+10
  +4.74842809364548492432e+10
  +4.76829431438127059937e+10
  +4.78816053511705627441e+10
  +4.80802675585284271240e+10
  +4.82789297658862838745e+10
  +4.84775919732441482544e+10
  +4.86762541806020050049e+10
  +4.88749163879598617554e+10
  +4.90735785953177261353e+10
  +4.92722408026755828857e+10
  +4.94709030100334396362e+10
  +4.96695652173913040161e+10
  +4.98682274247491607666e+10
  +5.00668896321070175171e+10
  +5.02655518394648818970e+10
  +5.04642140468227386475e+10
  +5.06628762541806030273e+10
  +5.08615384615384597778e+10
  +5.10602006688963165283e+10
  +5.12588628762541809082e+10
  +5.14575250836120376587e+10
  +5.16561872909698944092e+10
  +5.18548494983277587891e+10
  +5.20535117056856155396e+10
  +5.22521739130434722900e+10
  +5.24508361204013366699e+10
  +5.26494983277591934204e+10
  +5.28481605351170578003e+10
  +5.30468227424749145508e+10
  +5.32454849498327713013e+10
  +5.34441471571906356812e+10
  +5.36428093645484924316e+10
  +5.38414715719063491821e+10
  +5.40401337792642135620e+10
  +5.42387959866220703125e+10
  +5.44374581939799270630e+10
  +5.46361204013377914429e+10
  +5.48347826086956481934e+10
  +5.50334448160535125732e+10
  +5.52321070234113693237e+10
  +5.54307692307692260742e+10
  +5.56294314381270904541e+10
  +5.58280936454849472046e+10
  +5.60267558528428039551e+10
  +5.62254180602006683350e+10
  +5.64240802675585250854e+10
  +5.66227424749163818359e+10
  +5.68214046822742462158e+10
  +5.70200668896321029663e+10
  +5.72187290969899673462e+10
  +5.74173913043478240967e+10
  +5.76160535117056808472e+10
  +5.78147157190635452271e+10
  +5.80133779264214019775e+10
  +5.82120401337792587280e+10
  +5.84107023411371231079e+10
  +5.86093645484949798584e+10
  +5.88080267558528366089e+10
  +5.90066889632107009888e+10
  +5.92053511705685577393e+10
  +5.94040133779264221191e+10
  +5.96026755852842788696e+10
  +5.98013377926421356201e+10
  +6.00000000000000000000e+10
</indep>
<dep S11_dB frequency>
  -9.36607730810012657080e-04
  -1.24016284257652022183e-03
  -1.59860625263497221557e-03
  -2.02459484688940170860e-03
  -2.53204155741838235136e-03
  -3.13740415589887052319e-03
  -3.86075864220092931228e-03
  -4.72695002689203520180e-03
  -5.76697876290728148052e-03
  -7.01975764923401870932e-03
  -8.53439180612253385505e-03
  -1.03731777227863367769e-02
  -1.26155863518730235878e-02
  -1.53635969066924834431e-02
  -1.87488956202791108574e-02
  -2.29426680511890593306e-02
  -2.81690263101770504983e-02
  -3.47235720196838876239e-02
  -4.29992750729449452196e-02
  -5.35228584110301330856e-02
  -6.70063881181568454792e-02
  -8.44210278338923397756e-02
  -1.07103296033523323616e-01
  -1.36909184121123073119e-01
  -1.76438826271510557087e-01
  -2.29364773364658963706e-01
  -3.00910621323217719603e-01
  -3.98542390211092445451e-01
  -5.32946397757988354904e-01
  -7.19356652911285920915e-01
  -9.79221624885038277597e-01
  -1.34199222274209128969e+00
  -1.84638883242755547087e+00
  -2.53990754348711256227e+00
  -3.47501494647649877834e+00
  -4.70148656704685841135e+00
  -6.25732117815477550948e+00
  -8.16386876465021060767e+00
  -1.04308310598522773205e+01
  -1.30746407412888316912e+01
  -1.61585700255351341070e+01
  -1.98916352788662820217e+01
  -2.49333455473359002497e+01
  -3.29577008735585081922e+01
  -2.98444923900106751091e+01
  -2.31388791358394456665e+01
  -1.89350981024268776309e+01
  -1.58446573529086887078e+01
  -1.33795739057072982092e+01
  -1.13324699097066066145e+01
  -9.59536389888149443550e+00
  -8.10254769429422694316e+00
  -6.80957602341622880715e+00
  -5.68468360854650534009e+00
  -4.70490239203742799390e+00
  -3.85386963045293118313e+00
  -3.12001508353234768833e+00
  -2.49465660838103309160e+00
  -1.97008846755361499703e+00
  -1.53805447795303074088e+00
  -1.18897935416432298794e+00
  -9.12041771511054033539e-01
  -6.95840437270948797277e-01
  -5.29251458541445729544e-01
  -4.02144717265471185463e-01
  -3.05805416230139071043e-01
  -2.33064457294258675635e-01
  -1.78221089248117442461e-01
  -1.36853592664084283692e-01
  -1.05592075324619380505e-01
  -8.18984437966902706352e-02
  -6.38751127317195716016e-02
  -5.01089815450925582518e-02
  -3.95492176653589391777e-02
  -3.14140015787950921400e-02
  -2.51205704493456492832e-02
  -2.02332980369517440034e-02
  -1.64254019597990068291e-02
  -1.34507897031773630131e-02
  -1.11233766313531719228e-02
  -9.30188087820356911128e-03
  -7.87862215692449602278e-03
  -6.77124517548250565158e-03
  -5.91657891401481568494e-03
  -5.26605359179489751487e-03
  -4.78224570825976861427e-03
  -4.43621957960215005518e-03
  -4.20538424944390080984e-03
  -4.07157701201637731159e-03
  -4.01898615355611790734e-03
  -4.03128906237679249941e-03
  -4.08724431091439348307e-03
  -4.15819455854743186968e-03
  -4.28339126049013130954e-03
  -6.73547818342549488302e-03
  -4.56325640406113475223e+00
  -4.24925557261909905837e-02
  -3.73523753273185196710e-02
  -6.40022198002602460409e-02
  -4.64436889169719480108e-01
  -9.70222188781141720026e-02
  -1.27102115399297804776e-02
  -7.00311679291362992189e-03
  -7.00038863926202847843e-03
  -8.19997053701988082297e-03
  -9.89513672484130732410e-03
  -1.19634962658709560063e-02
  -1.44281142538659132302e-02
  -1.73694404936030472042e-02
  -2.09074000196264944695e-02
  -2.52033768240911143499e-02
  -3.04712119133896466860e-02
  -3.69956213753734816652e-02
  -4.51597174793755551381e-02
  -5.54855503048036768909e-02
  -6.86942967686894057078e-02
  -8.57968747340220605491e-02
  -1.08232585733044367471e-01
  -1.38084929909483206112e-01
  -1.78423568043364955127e-01
  -2.33855846754310481295e-01
  -3.11431307051161399002e-01
  -4.22146083113480341531e-01
  -5.83466206591274128002e-01
  -8.23549295649141255282e-01
  -1.18814754489469942556e+00
  -1.75123132600859454655e+00
  -2.62935551168355097218e+00
  -3.99683952617968296650e+00
  -6.09793292467135472634e+00
  -9.27289289586767928597e+00
  -1.40736284482244933258e+01
  -2.08572138387282564054e+01
  -2.07102061301459059450e+01
  -1.67255082680464504108e+01
  -1.46881100422593764421e+01
  -1.38788089049468332803e+01
  -1.38253706030153544759e+01
  -1.41585032674847646206e+01
  -1.42785646154874168445e+01
  -1.34107435299747521640e+01
  -1.15275412038136195747e+01
  -9.35421817342261974204e+00
  -7.39582897227157509690e+00
  -5.79723186281199698300e+00
  -4.54582365554978373723e+00
  -3.58300044714002519086e+00
  -2.84483784180237053718e+00
  -2.27560256243841729784e+00
  -1.83113398550949635357e+00
  -1.47835418625628878253e+00
  -1.19350012826715690117e+00
  -9.60139039322525533748e-01
  -7.67303788933923036630e-01
  -6.07806539661684297471e-01
  -4.76767873907160411040e-01
  -3.70460889160688588984e-01
  -2.85571527596495677859e-01
  -2.18879579244765060109e-01
  -1.67245308004561304971e-01
  -1.27735420815946854045e-01
  -9.77550498435082182436e-02
  -7.51216836211802130308e-02
  -5.80736501423854620252e-02
  -4.52327401516633489931e-02
  -3.55447298703132144593e-02
  -2.82154809203111721361e-02
  -2.26525467749508907511e-02
  -1.84163365228366127102e-02
  -1.51814123771480402603e-02
  -1.27068435242777832972e-02
  -1.08139800251753799565e-02
  -9.37000546359825943477e-03
  -8.27584933349016262094e-03
  -7.45731925358923079111e-03
  -6.85857183096408307144e-03
  -6.43725112864253126016e-03
  -6.16077944772068248486e-03
  -6.00338952675417286686e-03
  -5.94354851057214434579e-03
  -5.96146913524839977550e-03
  -6.03655547429225031175e-03
  -6.14549110972995808050e-03
  -6.26640638591908008537e-03
  -6.42230383575225806381e-03
  -6.99715133073415280346e-03
  -1.17789047321848697886e-02
  -1.10888222198713415345e-01
  -6.34928991462424763270e-01
  -1.23105123379581363197e-01
  -9.11989802695884754780e-02
  -9.57267934564365596817e-02
  -1.24047625767364860794e-01
  -2.03225321268147907094e-01
  -4.95658546917367326401e-01
  -1.33129804391431716404e+00
  -2.59053298327105552268e-01
  -5.96629904421414822280e-02
  -2.18402361090978408553e-02
  -1.22973144014257781964e-02
  -1.06392320364501677399e-02
  -1.20215348344737439634e-02
  -1.50040444179553120879e-02
  -1.91608190415267116979e-02
  -2.44591858545535750791e-02
  -3.10768227588484151347e-02
  -3.93586112562598761100e-02
  -4.98349580565022112766e-02
  -6.32841382322738288391e-02
  -8.08455188836204041714e-02
  -1.04208865383992571596e-01
  -1.35929819525051204243e-01
  -1.79965016960277029989e-01
  -2.42602197047094569893e-01
  -3.34119954153536735664e-01
  -4.71824203322897262058e-01
  -6.85708530449269937357e-01
  -1.02904248932350395052e+00
  -1.59757566008245888156e+00
  -2.56079287126494037352e+00
  -4.19902424947830077429e+00
  -6.90283469654365600121e+00
  -1.09076449095311733828e+01
  -1.42101035436941600665e+01
  -1.28873502045944459127e+01
  -1.07638792350706236078e+01
  -9.57454896476484051959e+00
  -9.19817194142951066738e+00
  -9.50268747412980374634e+00
  -1.04731381306774586903e+01
  -1.20597632165415475924e+01
  -1.34285127310493024311e+01
  -1.23310221039056493453e+01
  -9.39859308145598326689e+00
  -6.74823155960794629493e+00
  -4.82408376596440113815e+00
  -3.49953609255640785136e+00
  -2.59659358428712838673e+00
  -1.97552658485932486343e+00
  -1.53976622477667057787e+00
  -1.22561256766883475144e+00
  -9.91644342798249089910e-01
  -8.10945466578670726143e-01
  -6.66074243812486921357e-01
  -5.45985534548578121949e-01
  -4.44111399099125170320e-01
  -3.56976051411234729382e-01
  -2.82983483926235679373e-01
  -2.21333210612661174244e-01
  -1.71231612799746940601e-01
  -1.31533868814086657428e-01
  -1.00760276093171549650e-01
  -7.72962925200476047571e-02
  -5.95997843523381753972e-02
  -4.63313296014466607931e-02
  -3.64015841063111411646e-02
  -2.89629627866436756278e-02
  -2.33747233843862242675e-02
  -1.91610442626408729316e-02
  -1.59721219114811845141e-02
  -1.35520156462449609114e-02
  -1.17136834630627538478e-02
  -1.03202862946732698557e-02
  -9.27146903225695151463e-03
  -8.49339308204353528320e-03
  -7.93150599994173373386e-03
  -7.54525790278902114966e-03
  -7.30416248876041528104e-03
  -7.18474096384412973249e-03
  -7.16798704936636669333e-03
  -7.23707966401727215144e-03
  -7.37524677629100046394e-03
  -7.56433549189529721990e-03
  -7.78741429521828242705e-03
  -8.05152380398261278971e-03
  -8.51493182796658754086e-03
  -1.02733866321612372224e-02
  -2.25659540596535382329e-02
  -2.80162690191772034698e-01
  -7.50043353854165095740e-01
  -1.72827389460706831725e-01
  -1.22647128605878202867e-01
  -1.18566578461358845820e-01
  -1.34315493660985468827e-01
  -1.72384072185801984212e-01
  -2.54071906814703651900e-01
  -4.48433390113386676212e-01
  -8.63608435906631832779e-01
  -6.59286912533249669366e-01
  -2.08188361591401499551e-01
  -7.29056706284467032075e-02
  -3.17458126036631732569e-02
  -1.79337644259197799557e-02
  -1.39968560151798801505e-02
  -1.44509297451911634946e-02
  -1.73524321936384430531e-02
  -2.20333680597353184782e-02
  -2.83952585215277615582e-02
  -3.66805200355458313477e-02
  -4.74265837859834324397e-02
</dep>
<dep S21_dB frequency>
  -4.25724952802295675269e+01
  -4.00041502449078336667e+01
  -3.79671225804716812036e+01
  -3.62581774571313246724e+01
  -3.47684673210339951765e+01
  -3.34327530148773632845e+01
  -3.22087421660602046813e+01
  -3.10673650667061167496e+01
  -2.99876999220725721784e+01
  -2.89541103547683142949e+01
  -2.79545293124948699415e+01
  -2.69793783087375587115e+01
  -2.60208584769302646578e+01
  -2.50724693503307314302e+01
  -2.41286727288245792522e+01
  -2.31846524001786811198e+01
  -2.22361395789714002547e+01
  -2.12792854160574691491e+01
  -2.03105692890624851543e+01
  -1.93267367352758050458e+01
  -1.83247650045733649904e+01
  -1.73018581167701483992e+01
  -1.62554777103999228416e+01
  -1.51834215896033946080e+01
  -1.40839695095417347659e+01
  -1.29561261818302480009e+01
  -1.18000050935936720009e+01
  -1.06174121781439652068e+01
  -9.41269946576842997388e+00
  -8.19394790193783428833e+00
  -6.97446528896039286138e+00
  -5.77437752582717855887e+00
  -4.62166782954802979333e+00
  -3.55142069054484732504e+00
  -2.60171121795841830959e+00
  -1.80555991641511148771e+00
  -1.18125144481732857749e+00
  -7.26192369905680035203e-01
  -4.18478390480571449395e-01
  -2.25132584508774769017e-01
  -1.11866049334008732519e-01
  -4.99471275636998168768e-02
  -1.90584623762843526074e-02
  -7.26589423567099938067e-03
  -9.60978169239155161074e-03
  -2.63292724708021827484e-02
  -6.11912830496029458427e-02
  -1.20088141978255971698e-01
  -2.09954774152486867145e-01
  -3.38035307118195182952e-01
  -5.11518043934283350715e-01
  -7.37512779873477075654e-01
  -1.02325997318264683145e+00
  -1.37636492352423700503e+00
  -1.80479036454504004894e+00
  -2.31637083259147136260e+00
  -2.91776740043251558987e+00
  -3.61304429474737442973e+00
  -4.40231343826227927707e+00
  -5.28098739879060197211e+00
  -6.23999183998727691147e+00
  -7.26689450595340957761e+00
  -8.34755238787654718635e+00
