! CEL								
! CE3520K3									
! N-channel HJ-FET									
! Vds = 3 V Id = 30 mA									
# Hz S  MA   R 50									
!	f	S11	S21	S12	S22				
!	Hz	MAG	ANG	MAG	ANG	MAG	ANG	MAG	ANG
2000000000 0.9764955 -29.727423 5.731575 147.89436 0.021857258 68.960075 0.63759768 -20.443743
2100000000 0.97273982 -31.248201 5.7171054 146.25757 0.022911323 67.96814 0.63599634 -21.393179
2200000000 0.9696812 -32.739277 5.7117643 144.69727 0.02391579 67.19976 0.63463902 -22.478456
2300000000 0.96681792 -34.194183 5.6987324 143.13277 0.02492512 66.22374 0.632402 -23.514732
2400000000 0.96345627 -35.612747 5.6876845 141.55574 0.026083965 65.189217 0.63073003 -24.605869
2500000000 0.95994598 -37.092171 5.6741772 140.00804 0.027043089 64.541306 0.62955993 -25.588249
2600000000 0.95649558 -38.624271 5.6640964 138.44749 0.028111529 63.47654 0.62750936 -26.618179
2700000000 0.95258272 -40.057613 5.6531982 136.86847 0.029006058 62.362236 0.62531269 -27.685291
2800000000 0.94841015 -41.505749 5.638104 135.34367 0.029942621 61.578861 0.62396556 -28.738968
2900000000 0.94401896 -42.985687 5.626307 133.75023 0.030919269 60.518715 0.62156856 -29.733259
3000000000 0.94022846 -44.488052 5.6120577 132.22197 0.031959243 59.525898 0.61984503 -30.71459
3100000000 0.93641967 -45.952969 5.6002374 130.66782 0.032862648 58.868553 0.61741352 -31.772053
3200000000 0.93149841 -47.428734 5.5839291 129.13528 0.033845197 57.766544 0.61626887 -32.75742
3300000000 0.92631221 -48.860889 5.5684476 127.58762 0.034708682 56.585381 0.6144045 -33.800522
3400000000 0.92267179 -50.29435 5.5535431 126.05255 0.035679609 55.753571 0.61180431 -34.874836
3500000000 0.91841507 -51.79356 5.5396862 124.49397 0.036677431 54.823101 0.60896909 -35.844498
3600000000 0.91413522 -53.252544 5.5262856 122.97399 0.037609052 53.885418 0.60682273 -36.912621
3700000000 0.9085874 -54.680134 5.507194 121.45551 0.038376004 53.132011 0.60516793 -37.919277
3800000000 0.90300822 -56.14024 5.4923067 119.91912 0.039318368 52.001194 0.60296029 -38.958969
3900000000 0.8988902 -57.616425 5.4771757 118.41657 0.040188968 51.084068 0.60001618 -39.959133
4000000000 0.89455289 -59.055676 5.4597449 116.87321 0.041240908 50.229031 0.59719092 -40.933289
4100000000 0.88932431 -60.525982 5.4430504 115.3575 0.041835643 49.428524 0.59481287 -41.972401
4200000000 0.88444179 -61.985771 5.427393 113.87691 0.042705454 48.392082 0.59302872 -42.961517
4300000000 0.87988842 -63.386143 5.4126968 112.36238 0.043603159 47.536053 0.59023166 -44.057663
4400000000 0.87468016 -64.834747 5.3942881 110.84085 0.044349011 46.652851 0.58711195 -45.05558
4500000000 0.86971664 -66.278687 5.3783121 109.35221 0.045150399 45.686977 0.58477712 -46.090649
4600000000 0.86374545 -67.768288 5.3618422 107.84006 0.045971464 44.622097 0.58218622 -47.079235
4700000000 0.85929036 -69.20594 5.3451538 106.33031 0.046769898 44.030872 0.57948977 -48.104034
4800000000 0.85409737 -70.648804 5.3268886 104.86327 0.047618866 42.961018 0.57716328 -49.116169
4900000000 0.84877086 -72.121132 5.3117943 103.36476 0.048294276 41.997238 0.57435668 -50.135025
5000000000 0.84318441 -73.589508 5.2941265 101.87153 0.049099505 41.006966 0.5717206 -51.151272
5100000000 0.83888161 -75.011261 5.2753124 100.38794 0.049834356 40.225815 0.56830215 -52.175865
5200000000 0.83275908 -76.460266 5.2574306 98.909081 0.050603133 39.39563 0.56614822 -53.200043
5300000000 0.82733315 -77.955284 5.2406774 97.432892 0.051393442 38.396053 0.56315416 -54.178986
5400000000 0.82233584 -79.411774 5.2222466 95.952545 0.051944453 37.512665 0.56043392 -55.225288
5500000000 0.81623268 -80.878334 5.2037506 94.489388 0.052685473 36.507797 0.55799967 -56.220646
5600000000 0.81100321 -82.323586 5.1854925 93.005295 0.053447504 35.790775 0.55485946 -57.212471
5700000000 0.80517918 -83.794609 5.1674252 91.515579 0.054081339 34.620182 0.55188042 -58.263454
5800000000 0.79929692 -85.284477 5.1484294 90.049881 0.054772269 33.988255 0.54883683 -59.21236
5900000000 0.79380268 -86.746635 5.129591 88.578598 0.055214692 32.764423 0.54581767 -60.208004
6000000000 0.78769225 -88.219513 5.1090264 87.097969 0.055743247 31.976063 0.54265064 -61.207401
6100000000 0.78137505 -89.661728 5.0886483 85.612495 0.056318894 31.125521 0.53903615 -62.250011
6200000000 0.77450371 -91.106201 5.0663381 84.147186 0.056830935 30.162697 0.53608996 -63.17123
6300000000 0.76790583 -92.470268 5.0421953 82.682739 0.057121485 29.332531 0.53261948 -64.165611
6400000000 0.76168728 -93.798218 5.0157895 81.233131 0.057617333 28.507912 0.5290429 -65.082458
6500000000 0.75552583 -95.120949 4.9905801 79.826775 0.057934623 27.820419 0.52599996 -65.968437
6600000000 0.7502408 -96.39949 4.9650955 78.454872 0.058287404 27.159092 0.52343559 -66.849869
6700000000 0.74515045 -97.735657 4.941093 77.106171 0.058855001 26.72794 0.52117866 -67.667679
6800000000 0.74098533 -99.082306 4.9228153 75.778496 0.059393078 26.117565 0.51954108 -68.608757
6900000000 0.73691124 -100.47198 4.9040632 74.439964 0.060098555 25.609713 0.51761347 -69.540504
7000000000 0.732894 -101.86741 4.8863339 73.073891 0.060844891 24.768604 0.51557606 -70.515022
7100000000 0.7284261 -103.29312 4.8699832 71.707954 0.061411206 24.159016 0.51379406 -71.493958
7200000000 0.72342384 -104.70712 4.8520093 70.331741 0.06202146 23.265535 0.51166779 -72.535866
7300000000 0.71930122 -106.14691 4.8364286 68.956146 0.062736794 22.471264 0.50935954 -73.551506
7400000000 0.7147513 -107.5648 4.8195834 67.580467 0.06312187 21.757866 0.5068047 -74.527061
7500000000 0.70999914 -109.00949 4.8020163 66.199661 0.063558981 20.930939 0.50474244 -75.530037
7600000000 0.70557249 -110.4182 4.7842574 64.810562 0.064241536 20.14282 0.50205469 -76.581932
7700000000 0.70138574 -111.88484 4.7681084 63.449028 0.06459751 19.36132 0.49934962 -77.5933
7800000000 0.69619185 -113.36832 4.7496967 62.041451 0.065028392 18.628275 0.49682051 -78.54438
7900000000 0.69100773 -114.87037 4.7317085 60.666111 0.065450609 17.714575 0.49437991 -79.489059
8000000000 0.68574482 -116.30513 4.7127495 59.283463 0.06605503 16.889322 0.49196857 -80.496094
8100000000 0.68032479 -117.69321 4.6920524 57.936794 0.066271506 16.252439 0.48963204 -81.430664
8200000000 0.67504424 -119.13429 4.6741514 56.562832 0.066716559 15.45603 0.48713994 -82.403259
8300000000 0.66979998 -120.49642 4.6545105 55.219532 0.067098238 14.705838 0.4853422 -83.411102
8400000000 0.66467303 -121.90079 4.6338058 53.880005 0.067407735 13.901512 0.48320302 -84.358223
8500000000 0.65964216 -123.27288 4.6155019 52.522552 0.067921452 13.120429 0.48077142 -85.32618
8600000000 0.65454173 -124.67091 4.5962834 51.173744 0.068048507 12.423944 0.47833449 -86.258499
8700000000 0.64952153 -126.06638 4.5776978 49.838406 0.068565495 11.707309 0.47651246 -87.233719
8800000000 0.64452648 -127.45332 4.5592117 48.493484 0.068665445 10.884081 0.4740572 -88.209091
8900000000 0.63879836 -128.83783 4.5373387 47.152973 0.068874836 10.151278 0.47195172 -89.144493
9000000000 0.63412911 -130.12885 4.5150876 45.870552 0.068881154 9.5387621 0.4697156 -89.980911
9100000000 0.62919766 -131.41708 4.4951563 44.55761 0.069095239 8.6820745 0.46743062 -90.915924
9200000000 0.62415093 -132.6376 4.4750366 43.294781 0.069363877 8.3252764 0.46622789 -91.825859
9300000000 0.62022257 -133.95555 4.4562573 42.024067 0.069522619 7.655313 0.46417972 -92.704636
9400000000 0.61652398 -135.22864 4.4391494 40.75285 0.06988126 7.2820539 0.46272129 -93.632774
9500000000 0.6125502 -136.46193 4.4199729 39.502083 0.069979258 6.5497389 0.46133786 -94.562874
9600000000 0.60845166 -137.7719 4.4044876 38.265099 0.070168048 6.0104446 0.46090776 -95.428383
9700000000 0.60492325 -139.01616 4.3874106 37.027493 0.07063131 5.6727672 0.45980141 -96.373734
9800000000 0.60259169 -140.27866 4.3736086 35.787579 0.070941932 5.1840858 0.45860082 -97.332085
9900000000 0.59940898 -141.60107 4.3596997 34.532707 0.071294807 4.5377765 0.45730898 -98.346153
10000000000 0.59684223 -142.95718 4.3474202 33.262592 0.071681514 3.9384661 0.45625654 -99.292465
10100000000 0.59419745 -144.26292 4.3323517 31.999638 0.071798123 3.3490288 0.45499057 -100.2885
10200000000 0.59032601 -145.66183 4.3183284 30.731234 0.072352581 2.7039609 0.45425022 -101.21181
10300000000 0.58726281 -146.95888 4.3036394 29.467182 0.072603658 2.339066 0.45352659 -102.25216
10400000000 0.58387649 -148.29575 4.2888479 28.224096 0.073016845 1.6309184 0.45240033 -103.24199
10500000000 0.58059114 -149.57468 4.2763877 26.988192 0.073302582 1.0252713 0.45144767 -104.19925
10600000000 0.57759863 -150.90715 4.2623172 25.726662 0.073675819 0.3625358 0.45042259 -105.19854
10700000000 0.57447147 -152.19243 4.248456 24.497959 0.073949181 -0.21528919 0.44954327 -106.19023
10800000000 0.5715484 -153.50594 4.2368903 23.242224 0.074251428 -0.78812975 0.44835594 -107.14162
10900000000 0.5689165 -154.81253 4.2241678 22.005686 0.07456024 -1.4476162 0.44784799 -108.16302
11000000000 0.56599486 -156.09662 4.2112575 20.759668 0.074953146 -2.0286784 0.44692314 -109.15048
11100000000 0.563236 -157.37669 4.1992149 19.529099 0.075102895 -2.5679202 0.44615492 -110.11193
11200000000 0.56051975 -158.6833 4.1868038 18.284021 0.075431071 -3.1092184 0.44514462 -111.04902
11300000000 0.55791736 -159.95908 4.1765866 17.049229 0.075633489 -3.7454586 0.44415212 -112.06546
11400000000 0.5555926 -161.19998 4.1648998 15.831864 0.075844668 -4.3674264 0.44362125 -113.05309
11500000000 0.55325079 -162.52859 4.1520987 14.585436 0.076171599 -4.9141827 0.44266185 -113.97106
11600000000 0.55095643 -163.81691 4.1414905 13.344329 0.076517664 -5.4864364 0.44226164 -114.95867
11700000000 0.54821986 -165.09991 4.1296115 12.128405 0.076655425 -6.0188227 0.44197357 -115.91244
11800000000 0.54588628 -166.36304 4.1183205 10.906568 0.077027015 -6.6503792 0.44125429 -116.90343
11900000000 0.54375565 -167.67142 4.1084509 9.6899366 0.077296354 -7.1358185 0.44106317 -117.79178
12000000000 0.5415926 -168.94267 4.098597 8.4558163 0.077541873 -7.6208768 0.44076109 -118.82188
12100000000 0.53988612 -170.1911 4.0889959 7.2543464 0.077968009 -8.1326542 0.44097745 -119.82062
12200000000 0.53791279 -171.4259 4.0787559 6.0597315 0.078404166 -8.8547878 0.44050765 -120.73959
12300000000 0.53662151 -172.72896 4.0702052 4.844173 0.078669883 -9.4011974 0.44045821 -121.7597
12400000000 0.53501916 -174.06432 4.0626831 3.6391804 0.079341613 -10.079297 0.44012207 -122.84705
12500000000 0.53318214 -175.41769 4.0551691 2.4189959 0.079713814 -10.777902 0.44051555 -123.82199
12600000000 0.53122574 -176.74011 4.0478301 1.1917465 0.079929136 -11.707865 0.43990991 -124.87579
12700000000 0.52916873 -178.1111 4.0402722 -0.030483611 0.080217659 -12.537537 0.43954647 -125.93774
12800000000 0.52651352 -179.48709 4.033474 -1.2826785 0.080050282 -13.294604 0.43899405 -126.89484
12900000000 0.52416199 179.19019 4.0248399 -2.5344794 0.080302648 -14.067316 0.43800786 -127.92225
13000000000 0.52150118 177.89035 4.0159431 -3.7634301 0.080131233 -14.722085 0.43749464 -128.88017
13100000000 0.51881033 176.62453 4.0063143 -4.9869323 0.080079012 -15.266468 0.43734229 -129.84723
13200000000 0.51648247 175.38275 3.9981909 -6.2065773 0.080212384 -15.856595 0.43689144 -130.83286
13300000000 0.5140329 174.12926 3.9897554 -7.4219089 0.080465667 -16.374769 0.43642098 -131.71474
13400000000 0.51183695 172.8718 3.9815907 -8.6329641 0.080082729 -16.959343 0.43666983 -132.65187
13500000000 0.50956506 171.63614 3.9745777 -9.843873 0.080445535 -17.428255 0.43680194 -133.63382
13600000000 0.50749314 170.38504 3.9668865 -11.052736 0.080327831 -17.979603 0.43644941 -134.5527
13700000000 0.5056749 169.15479 3.9600022 -12.264519 0.080477208 -18.489655 0.43717104 -135.52596
13800000000 0.5038355 167.94862 3.9525917 -13.473825 0.08065556 -19.196547 0.43692446 -136.42734
13900000000 0.50177175 166.68045 3.9451067 -14.667933 0.080618016 -19.495142 0.43738618 -137.41322
14000000000 0.49983168 165.46783 3.939275 -15.852067 0.080869116 -20.030237 0.4378753 -138.33794
14100000000 0.49739048 164.22289 3.9311779 -17.048944 0.081012405 -20.549131 0.4379366 -139.28206
14200000000 0.49587455 163.05289 3.9260623 -18.244602 0.081158146 -21.087816 0.43833545 -140.23155
14300000000 0.49389768 161.8232 3.9214363 -19.410255 0.081070594 -21.667173 0.43903196 -141.16019
14400000000 0.4921996 160.59558 3.9175661 -20.595406 0.081412099 -22.230154 0.43934366 -142.08252
14500000000 0.49056649 159.44557 3.9140232 -21.776651 0.081496365 -22.886595 0.4399164 -143.00217
14600000000 0.48880678 158.25203 3.9119356 -22.983637 0.081546277 -23.413536 0.44094041 -143.96423
14700000000 0.48718366 157.00894 3.9085386 -24.171614 0.081566609 -23.844803 0.44151667 -144.93333
14800000000 0.48583952 155.81163 3.9049795 -25.391872 0.081797414 -24.480936 0.44214016 -145.86501
14900000000 0.48434809 154.63156 3.9026258 -26.588284 0.081793666 -24.918772 0.44315276 -146.82436
15000000000 0.4824183 153.408 3.8998446 -27.806522 0.081908427 -25.367851 0.44375288 -147.75972
15100000000 0.48117065 152.1976 3.8978088 -28.992224 0.082203209 -25.912731 0.44464344 -148.76968
15200000000 0.4797934 151.04529 3.895268 -30.187254 0.082192346 -26.510506 0.44507605 -149.71107
15300000000 0.47842097 149.78593 3.8952899 -31.402836 0.082243294 -27.063032 0.44584379 -150.71806
15400000000 0.47698662 148.59402 3.8927548 -32.620197 0.082427002 -27.456081 0.44634962 -151.64542
15500000000 0.47590137 147.38271 3.8907793 -33.823586 0.082500286 -28.040634 0.44749239 -152.63423
15600000000 0.47442895 146.19113 3.8898818 -35.041943 0.082581103 -28.530993 0.44773439 -153.61093
15700000000 0.47301212 144.96017 3.8892832 -36.256046 0.082837857 -29.191935 0.44886002 -154.54066
15800000000 0.47215325 143.73184 3.8879676 -37.477634 0.082923099 -29.826784 0.44993842 -155.46407
15900000000 0.47084832 142.4792 3.8874812 -38.68914 0.083011188 -30.095963 0.45076108 -156.42331
16000000000 0.46953964 141.22679 3.8861725 -39.90947 0.083169974 -30.876957 0.45172134 -157.39838
16100000000 0.46818501 139.98775 3.8853078 -41.133125 0.083134852 -31.34477 0.45248321 -158.40506
16200000000 0.46685827 138.73584 3.8857524 -42.346237 0.08335422 -31.912516 0.45372266 -159.35898
16300000000 0.46577629 137.56093 3.886929 -43.572227 0.083338439 -32.356731 0.45496795 -160.39592
16400000000 0.46449447 136.27374 3.8861833 -44.789715 0.083559424 -33.029232 0.45586103 -161.3551
16500000000 0.46288329 135.02371 3.8867548 -46.011154 0.083530463 -33.488949 0.45694181 -162.34178
16600000000 0.46207848 133.80017 3.8871377 -47.235172 0.083706334 -34.077164 0.45846558 -163.32182
16700000000 0.46084306 132.5443 3.8885577 -48.456264 0.083710484 -34.460075 0.45939729 -164.36339
16800000000 0.45954892 131.23741 3.8894377 -49.669872 0.083878204 -35.124405 0.46026328 -165.33566
16900000000 0.45819917 130.01483 3.8898535 -50.884598 0.084079303 -35.615475 0.46100587 -166.30817
17000000000 0.45698941 128.76033 3.8913751 -52.113075 0.084059834 -36.194283 0.46237811 -167.35193
17100000000 0.45595306 127.48622 3.8939691 -53.31609 0.083929136 -36.785454 0.46278158 -168.29849
17200000000 0.45512709 126.21967 3.8959336 -54.505653 0.084054776 -37.242939 0.46358824 -169.28485
17300000000 0.45412165 124.95856 3.8983765 -55.715786 0.084119603 -37.821312 0.46417499 -170.24049
17400000000 0.4530828 123.66657 3.902437 -56.88863 0.0842373 -38.346607 0.46438146 -171.20082
17500000000 0.45210567 122.2995 3.9071636 -58.079025 0.084461547 -38.786587 0.46523699 -172.06279
17600000000 0.45135948 120.98566 3.91471 -59.25528 0.084267706 -39.274586 0.46589312 -172.89084
17700000000 0.45037615 119.67435 3.9239533 -60.461224 0.084408745 -39.760998 0.46748081 -173.75189
17800000000 0.44890124 118.33505 3.9346416 -61.677231 0.084566139 -40.323261 0.46931857 -174.53459
17900000000 0.44816235 116.96783 3.9445074 -62.943336 0.084999382 -40.897537 0.47106636 -175.51003
18000000000 0.44689003 115.60191 3.9549367 -64.224281 0.085012496 -41.40456 0.47295797 -176.42361
18100000000 0.44565982 114.24648 3.96439 -65.488403 0.084927469 -42.069862 0.47519541 -177.41504
18200000000 0.44487795 112.84768 3.9734375 -66.778229 0.085178524 -42.606625 0.47745231 -178.40044
18300000000 0.44392827 111.48466 3.9833679 -68.069855 0.085447147 -43.181622 0.47922581 -179.39549
18400000000 0.44274521 110.08395 3.9926908 -69.367027 0.085464634 -43.784779 0.48133492 179.58571
18500000000 0.44161218 108.66203 4.002656 -70.668495 0.085465051 -44.37384 0.48339263 178.58231
18600000000 0.44080707 107.25859 4.012671 -71.964325 0.085636146 -45.007553 0.48511314 177.56494
18700000000 0.44007221 105.87615 4.0245204 -73.277016 0.085588723 -45.591854 0.48748577 176.46838
18800000000 0.4386701 104.41445 4.0354314 -74.586456 0.085804828 -46.216602 0.48919567 175.45357
18900000000 0.4377456 102.93522 4.0450201 -75.908272 0.085678481 -46.796455 0.4916659 174.36346
19000000000 0.43714756 101.4845 4.0570912 -77.233154 0.086055145 -47.478855 0.49388978 173.28714
19100000000 0.43617332 100.02483 4.0686827 -78.547394 0.085888475 -48.107487 0.49549183 172.20297
19200000000 0.43499178 98.528351 4.0804281 -79.900383 0.086042941 -48.449211 0.49762431 171.1268
19300000000 0.43429571 96.98275 4.0940371 -81.227425 0.08612939 -49.329075 0.49967545 170.00912
19400000000 0.43338954 95.511177 4.1075945 -82.585236 0.086242907 -50.013802 0.50164652 168.89444
19500000000 0.43270823 93.946419 4.1216369 -83.930168 0.086308628 -50.589645 0.50355041 167.78162
19600000000 0.43164623 92.371147 4.1361623 -85.315971 0.086324781 -51.256367 0.50584263 166.68243
19700000000 0.43085974 90.835136 4.1505184 -86.686943 0.086165257 -51.846966 0.50809216 165.54378
19800000000 0.43020785 89.285118 4.1651835 -88.057823 0.086322255 -52.583832 0.50992477 164.40131
19900000000 0.4295859 87.627518 4.1795931 -89.459244 0.086308248 -53.201775 0.51198578 163.25995
20000000000 0.42904931 86.04541 4.1974268 -90.847519 0.086312205 -53.950871 0.51410472 162.15472
20100000000 0.42809179 84.346214 4.212791 -92.279411 0.086464263 -54.617493 0.51624286 160.99333
20200000000 0.42779988 82.695633 4.2285004 -93.69014 0.086261719 -55.398296 0.51789856 159.82623
20300000000 0.4274081 81.002037 4.2470713 -95.103271 0.086367898 -55.994774 0.52008802 158.67654
20400000000 0.42666408 79.284164 4.2635465 -96.560257 0.086435437 -56.730972 0.52205276 157.47908
20500000000 0.42643344 77.515579 4.282692 -97.996445 0.086561903 -57.480305 0.52402323 156.31122
20600000000 0.42604628 75.798164 4.3000689 -99.446922 0.086354554 -58.182148 0.52610266 155.09576
20700000000 0.42535001 74.036659 4.3191299 -100.92313 0.086497322 -59.046875 0.52782124 153.92226
20800000000 0.42508513 72.227356 4.3375144 -102.38084 0.086427487 -59.730072 0.53001946 152.68179
20900000000 0.42513773 70.399651 4.3574133 -103.87096 0.086296961 -60.502171 0.53228557 151.43532
21000000000 0.42480215 68.552414 4.3775349 -105.37136 0.086223021 -61.293396 0.53389245 150.17157
21100000000 0.42451751 66.677536 4.3983345 -106.88041 0.08616557 -62.04274 0.53614682 148.89409
21200000000 0.42427245 64.730042 4.4198766 -108.42339 0.086069345 -62.830555 0.53825337 147.60002
21300000000 0.42437819 62.877808 4.4411888 -109.94566 0.086158529 -63.674759 0.54007435 146.30434
21400000000 0.42457229 60.916348 4.4610672 -111.48597 0.085876368 -64.629433 0.54200608 145.02487
21500000000 0.42463279 58.926003 4.4844117 -113.04386 0.085593216 -65.504822 0.54424208 143.68127
21600000000 0.42480767 56.898693 4.5069923 -114.63157 0.085532352 -66.317009 0.54616624 142.31628
21700000000 0.42478171 54.89938 4.5294161 -116.22823 0.085211501 -67.235428 0.54862219 140.92499
21800000000 0.42536673 52.870663 4.553401 -117.81905 0.085100107 -68.056229 0.55063361 139.5656
21900000000 0.42580602 50.705803 4.576654 -119.4519 0.085115857 -68.968643 0.55257291 138.12733
22000000000 0.42614371 48.561378 4.5999179 -121.10606 0.084907748 -70.13044 0.5549773 136.72981
