! CEL
! CE3520K3
! N-channel HJ-FET
! Vds = 2 V Id = 6 mA
# Hz S  MA   R 50
!      f          S11               S21               S12               S22
!    Hz      MAG      ANG      MAG      ANG      MAG      ANG      MAG      ANG
2000000000 0.98035944 -29.159311 4.3293347 149.29152 0.02862794 67.64743 0.65920687 -24.487707
2100000000 0.9774183 -30.489841 4.3240166 147.79355 0.029987119 66.183418 0.65804654 -25.811518
2200000000 0.97545749 -31.906618 4.3191977 146.24763 0.031191252 65.322472 0.65626943 -27.059568
2300000000 0.97434241 -33.317402 4.3068004 144.77284 0.032581396 64.448807 0.65481108 -28.235485
2400000000 0.97342134 -34.820107 4.304769 143.21278 0.033806998 63.199898 0.65186012 -29.424128
2500000000 0.96932852 -36.2645 4.2901778 141.6741 0.035034843 61.810051 0.65092826 -30.570803
2600000000 0.96526688 -37.561619 4.2850237 140.21828 0.036292266 61.181702 0.6505667 -31.888613
2700000000 0.96219599 -39.121628 4.2807093 138.72375 0.037970558 60.058563 0.64932787 -32.974991
2800000000 0.95962822 -40.491951 4.2689357 137.23666 0.038620338 58.854374 0.64738894 -34.213203
2900000000 0.95673466 -41.909664 4.2573338 135.73979 0.040205535 57.615959 0.64550108 -35.335659
3000000000 0.95290506 -43.288124 4.2481179 134.21991 0.041546874 56.773392 0.64350295 -36.553448
3100000000 0.95205212 -44.737865 4.2435827 132.79874 0.042760104 55.812069 0.6416347 -37.710194
3200000000 0.94876558 -46.223209 4.2331743 131.26402 0.04381628 54.542065 0.63994902 -38.816719
3300000000 0.94568032 -47.580471 4.2210083 129.81905 0.044842921 53.47477 0.63803607 -40.011353
3400000000 0.9413175 -48.969849 4.2129235 128.31252 0.046240676 52.433151 0.63646066 -41.236153
3500000000 0.93928897 -50.437721 4.202857 126.84089 0.04733729 51.340946 0.63367099 -42.356525
3600000000 0.93642485 -51.890766 4.1923351 125.37395 0.048345014 50.658733 0.63123089 -43.399147
3700000000 0.93293279 -53.253815 4.1841464 123.91417 0.049559005 49.42487 0.6297676 -44.620163
3800000000 0.9292568 -54.641273 4.1742859 122.44146 0.050719552 48.55592 0.62798601 -45.840374
3900000000 0.92638737 -56.05471 4.1607347 120.95821 0.051728867 47.180214 0.62498778 -46.888268
4000000000 0.92172456 -57.476391 4.1520882 119.50322 0.052868079 46.019093 0.62361187 -48.01675
4100000000 0.91821206 -58.843674 4.1433072 118.06731 0.053912368 45.173332 0.62170869 -49.265339
4200000000 0.91520518 -60.290573 4.1319628 116.6126 0.054964423 43.967453 0.61865777 -50.355289
4300000000 0.9112584 -61.60009 4.1184449 115.20049 0.056225691 43.146294 0.61716086 -51.438747
4400000000 0.90817714 -62.984699 4.1118631 113.75092 0.057133373 42.244114 0.6148681 -52.639084
4500000000 0.90342665 -64.495232 4.0992804 112.25583 0.057883587 41.28965 0.61309057 -53.670643
4600000000 0.89854622 -65.812248 4.0837727 110.84344 0.0588702 40.274513 0.61111212 -54.788788
4700000000 0.89492893 -67.058296 4.0769234 109.45761 0.059751455 39.184032 0.60889524 -56.010738
4800000000 0.89136875 -68.591667 4.065208 107.9533 0.060798097 38.071537 0.60605025 -56.987495
4900000000 0.88707829 -69.942261 4.054749 106.55622 0.061861593 37.123573 0.60430056 -58.184017
5000000000 0.8834703 -71.275841 4.0419264 105.14703 0.062445261 36.183662 0.60217398 -59.236687
5100000000 0.87941438 -72.701439 4.0329971 103.71819 0.063399076 35.444298 0.59947848 -60.331047
5200000000 0.87512541 -74.021103 4.0194173 102.29394 0.06425029 34.218136 0.59719169 -61.45924
5300000000 0.87108833 -75.377769 4.0077348 100.91442 0.064904436 33.216373 0.59475601 -62.552628
5400000000 0.86669689 -76.714203 3.9981534 99.495865 0.065772459 32.252449 0.59277332 -63.675285
5500000000 0.86234194 -78.135506 3.9846117 98.086624 0.066744119 31.257395 0.59030598 -64.720192
5600000000 0.85920489 -79.504395 3.9748867 96.695518 0.067460075 30.608212 0.58749753 -65.751846
5700000000 0.8544088 -80.832359 3.962162 95.306511 0.068250082 29.470003 0.5855881 -66.846016
5800000000 0.85125661 -82.207214 3.9513967 93.90007 0.069124207 28.434937 0.5824883 -67.946663
5900000000 0.84647816 -83.614677 3.9391978 92.512489 0.069663748 27.620934 0.58058238 -68.968567
6000000000 0.84181046 -84.908356 3.9263773 91.123344 0.07059823 26.652361 0.57836372 -70.023941
6100000000 0.83789319 -86.259552 3.9155412 89.759857 0.071211517 25.885136 0.57569623 -71.115067
6200000000 0.83409774 -87.576035 3.9046545 88.393188 0.072031915 24.971451 0.57341707 -72.178909
6300000000 0.82988864 -88.94072 3.892889 87.004883 0.072693393 23.92836 0.57114202 -73.158348
6400000000 0.8256644 -90.243111 3.8813787 85.652077 0.073294349 22.934246 0.56898546 -74.255173
6500000000 0.8216297 -91.5961 3.8706949 84.276001 0.073786035 22.0924 0.56608331 -75.338188
6600000000 0.81658125 -92.951912 3.8602247 82.906227 0.074483015 21.200298 0.56481081 -76.375488
6700000000 0.81315678 -94.329742 3.8484027 81.519829 0.074938297 20.197062 0.56123024 -77.407501
6800000000 0.8088209 -95.710945 3.838423 80.154449 0.07584817 19.402761 0.55921489 -78.420227
6900000000 0.8038699 -97.040222 3.8265059 78.772766 0.076218642 18.418161 0.55667752 -79.438362
7000000000 0.80067348 -98.322502 3.8144758 77.443596 0.076761313 17.538198 0.55434835 -80.435738
7100000000 0.79529458 -99.629883 3.8026104 76.082848 0.077448085 16.622234 0.55219877 -81.520325
7200000000 0.79143721 -101.05136 3.7932043 74.714951 0.077946804 15.866836 0.54961562 -82.553917
7300000000 0.78773248 -102.35714 3.7806728 73.381371 0.078369997 14.822065 0.5469529 -83.557106
7400000000 0.78295469 -103.68977 3.7701008 72.02803 0.078973308 13.885635 0.54479128 -84.591705
7500000000 0.77819228 -105.04374 3.7575359 70.665321 0.079064943 12.876518 0.54148757 -85.600372
7600000000 0.77404386 -106.38007 3.7452672 69.312988 0.079662196 12.190918 0.53888243 -86.670837
7700000000 0.76892287 -107.66424 3.7330697 67.962418 0.080123782 11.264615 0.53660917 -87.649651
7800000000 0.76453674 -108.94676 3.7220328 66.647896 0.080350786 10.561734 0.53399312 -88.600731
7900000000 0.75981873 -110.28437 3.7081449 65.327858 0.08065822 9.5138369 0.53136337 -89.502716
8000000000 0.75549012 -111.63863 3.6944909 64.012749 0.080999263 8.5433502 0.52820325 -90.424057
8100000000 0.75072408 -112.7744 3.6810288 62.746887 0.081170157 8.2485485 0.52653778 -91.360237
8200000000 0.74709713 -114.07478 3.6709175 61.487892 0.081431873 7.3104978 0.52469784 -92.333099
8300000000 0.74418557 -115.38636 3.6602607 60.203304 0.081795208 6.5379539 0.52246928 -93.27623
8400000000 0.73963416 -116.66306 3.6483145 58.93219 0.082067296 5.9637499 0.52101028 -94.122498
8500000000 0.73588461 -117.89878 3.6420629 57.659878 0.082375079 5.1708198 0.51917928 -95.156998
8600000000 0.73199552 -119.25385 3.631789 56.397861 0.082716458 4.5214677 0.51812279 -96.126732
8700000000 0.72955889 -120.55535 3.6235869 55.104237 0.08336971 3.8666859 0.51616985 -97.1278
8800000000 0.72517073 -121.77209 3.6152103 53.851593 0.083781794 3.0433385 0.51530188 -98.088791
8900000000 0.72136921 -123.12476 3.6070786 52.555313 0.084107704 2.1848943 0.51340312 -99.125443
9000000000 0.71829283 -124.50544 3.5987601 51.276131 0.084241204 1.6761376 0.51158053 -100.07645
9100000000 0.71511918 -125.66833 3.5923619 50.006889 0.084739357 0.76723975 0.51009703 -101.15446
9200000000 0.71184146 -127.03719 3.5852444 48.724808 0.085281186 -0.011331738 0.50796282 -102.10577
9300000000 0.70904398 -128.45105 3.5777168 47.430031 0.085361183 -0.91411293 0.50571817 -103.14552
9400000000 0.70623988 -129.75668 3.5711887 46.134533 0.085861355 -1.6423188 0.50318545 -104.16975
9500000000 0.70317817 -131.09886 3.5644724 44.854164 0.086063124 -2.6192844 0.50138599 -105.1101
9600000000 0.69802451 -132.61554 3.5574813 43.548759 0.086496606 -3.1351681 0.50003541 -106.0563
9700000000 0.69512051 -133.93272 3.5495107 42.233067 0.086662017 -3.9819837 0.49791473 -107.10778
9800000000 0.6903013 -135.22452 3.5426362 40.948772 0.086925916 -4.9027948 0.49624062 -108.15487
9900000000 0.68615705 -136.63518 3.5334101 39.636402 0.086981654 -5.5778499 0.49404287 -109.1353
10000000000 0.68266982 -137.93637 3.5247579 38.351841 0.087404691 -6.2508926 0.49174878 -110.12307
10100000000 0.67990434 -139.17497 3.5167253 37.120605 0.087490276 -7.1406221 0.48888126 -111.12818
10200000000 0.67659974 -140.53787 3.5086148 35.819702 0.087834805 -7.8205323 0.48692417 -112.07175
10300000000 0.67298585 -141.90527 3.5027788 34.53149 0.087927856 -8.6260872 0.48500654 -113.12753
10400000000 0.67029893 -143.30487 3.4965122 33.268204 0.088258371 -9.3520298 0.4819777 -113.97632
10500000000 0.66588622 -144.6869 3.4892383 31.970182 0.088275962 -10.07433 0.48030207 -114.94946
10600000000 0.66280442 -146.04422 3.4807005 30.706028 0.088426031 -10.688622 0.47835645 -115.82999
10700000000 0.65894109 -147.40927 3.4734447 29.44886 0.088500425 -11.503117 0.4764618 -116.78558
10800000000 0.65519387 -148.70569 3.4669838 28.165405 0.08869382 -12.203065 0.47475183 -117.73984
10900000000 0.65173894 -150.09158 3.4595358 26.897047 0.088752694 -12.945185 0.47268102 -118.60236
11000000000 0.64853245 -151.43285 3.4526839 25.638899 0.088692352 -13.707191 0.47119188 -119.60286
11100000000 0.64510435 -152.81615 3.4458594 24.361616 0.089126498 -14.466987 0.46957988 -120.50938
11200000000 0.6418395 -154.17671 3.4398708 23.089294 0.088837244 -15.152551 0.46813732 -121.45351
11300000000 0.63862222 -155.51054 3.4333434 21.83687 0.089000016 -15.724501 0.46625033 -122.46378
11400000000 0.63507158 -156.86902 3.427609 20.595415 0.089218237 -16.472279 0.46491233 -123.37307
11500000000 0.63274437 -158.27092 3.4199688 19.300465 0.089182697 -17.070621 0.46265104 -124.31868
11600000000 0.62878108 -159.53035 3.4129643 18.060768 0.089336045 -17.796404 0.46122947 -125.25183
11700000000 0.62538612 -160.98666 3.4069474 16.790958 0.089404359 -18.795052 0.45967403 -126.20789
11800000000 0.62284225 -162.39101 3.4014907 15.55523 0.089555413 -19.245562 0.45831522 -127.1676
11900000000 0.61958927 -163.70592 3.3943374 14.322188 0.089110956 -19.901724 0.45673829 -128.02385
12000000000 0.61613208 -165.04575 3.3905368 13.038728 0.089393809 -20.636362 0.45564693 -128.98877
12100000000 0.61304933 -166.49728 3.3853569 11.806666 0.089599274 -21.301918 0.45352632 -129.98088
12200000000 0.61096042 -167.85063 3.3797238 10.549945 0.089713551 -22.009293 0.452544 -130.89442
12300000000 0.6075986 -169.17589 3.3744853 9.2886162 0.089457236 -22.743687 0.45065957 -131.94034
12400000000 0.60447973 -170.57022 3.3704598 8.0455942 0.089428812 -23.311165 0.44922972 -132.82495
12500000000 0.60229868 -171.98409 3.3649313 6.7620668 0.089287706 -24.057844 0.44756109 -133.86702
12600000000 0.59947616 -173.32243 3.3608406 5.5113583 0.089316189 -24.603468 0.44605979 -134.73344
12700000000 0.59701788 -174.70161 3.3558095 4.2723966 0.089296155 -25.136869 0.44458804 -135.71916
12800000000 0.59436476 -176.11017 3.3517928 3.018084 0.089339547 -25.978699 0.44334215 -136.69086
12900000000 0.59207481 -177.47902 3.3470819 1.7613162 0.089451946 -26.667919 0.44219255 -137.63174
13000000000 0.58923489 -178.88036 3.3423278 0.51946449 0.089172013 -27.252413 0.44064522 -138.59171
13100000000 0.58663529 179.69145 3.3383617 -0.74280989 0.089399897 -27.926414 0.43967548 -139.53201
13200000000 0.5849328 178.30835 3.3333902 -1.9962801 0.089443073 -28.405338 0.43808717 -140.4559
13300000000 0.5825026 176.96559 3.3288641 -3.2324831 0.089420885 -29.071365 0.43700367 -141.46475
13400000000 0.58018279 175.56529 3.3248861 -4.4606824 0.089228898 -29.684477 0.43584818 -142.38341
13500000000 0.5782218 174.15282 3.3217754 -5.6892648 0.089269727 -30.393324 0.43512332 -143.28752
13600000000 0.57643425 172.70998 3.3176723 -6.9404187 0.089402765 -30.854612 0.43365246 -144.32765
13700000000 0.57487792 171.28069 3.314826 -8.1618614 0.089953147 -31.477411 0.43314472 -145.20267
13800000000 0.57335418 169.84903 3.3128707 -9.4011736 0.089860395 -32.184116 0.43250731 -146.2271
13900000000 0.57216442 168.32613 3.3117242 -10.641122 0.090512842 -32.961967 0.43177605 -147.21675
14000000000 0.5701462 166.81784 3.3082333 -11.901411 0.09041065 -33.970505 0.43100321 -148.20952
14100000000 0.56783068 165.35594 3.3085175 -13.136177 0.089962646 -34.836445 0.43050179 -149.23312
14200000000 0.56514657 163.81271 3.3082607 -14.398008 0.089829221 -35.721439 0.42926872 -150.25963
14300000000 0.56294978 162.29027 3.3057644 -15.664875 0.089547038 -36.46027 0.42815661 -151.28334
14400000000 0.56091946 160.83376 3.3037171 -16.934492 0.089133531 -37.102974 0.42681104 -152.29411
14500000000 0.5582782 159.36743 3.3028071 -18.209127 0.088976935 -37.735554 0.42561302 -153.27135
14600000000 0.55619508 157.94292 3.2998154 -19.503422 0.088555112 -38.529495 0.42409843 -154.28508
14700000000 0.55452704 156.53215 3.2980797 -20.764788 0.088060319 -39.091152 0.42351666 -155.33914
14800000000 0.55238718 155.08554 3.2959266 -22.038851 0.088195443 -39.668369 0.42211422 -156.30629
14900000000 0.55016404 153.55418 3.2932477 -23.317476 0.087894775 -40.477474 0.4209373 -157.28061
15000000000 0.54874098 152.04437 3.2919543 -24.579586 0.087823734 -40.906178 0.420654 -158.33044
15100000000 0.54688555 150.7036 3.2885768 -25.84276 0.087609917 -41.426895 0.41935679 -159.29141
15200000000 0.54509979 149.22774 3.2889528 -27.108553 0.087204166 -42.200371 0.41881627 -160.23088
15300000000 0.54393399 147.75301 3.2869723 -28.367315 0.087040894 -42.959343 0.41811264 -161.25899
15400000000 0.54296118 146.27452 3.2861123 -29.656727 0.086949982 -43.410767 0.41766712 -162.28862
15500000000 0.54125446 144.82542 3.2842944 -30.894506 0.086808957 -44.043594 0.4166556 -163.24689
15600000000 0.53953922 143.30179 3.2849531 -32.17099 0.086298577 -44.618847 0.41661692 -164.28334
15700000000 0.53901666 141.76015 3.2848294 -33.436756 0.086366229 -45.368191 0.41599682 -165.38882
15800000000 0.5374468 140.37326 3.2839112 -34.708504 0.08604046 -45.874798 0.41517755 -166.356
15900000000 0.53630674 138.92163 3.2831187 -35.958344 0.085566275 -46.341728 0.41458476 -167.39435
16000000000 0.53529626 137.40051 3.2832992 -37.236729 0.085518986 -47.148552 0.41460785 -168.37189
16100000000 0.5341081 135.84189 3.2840064 -38.537556 0.085209489 -47.551041 0.4147054 -169.53419
16200000000 0.53322101 134.37274 3.2830102 -39.787354 0.085047007 -48.186493 0.41394556 -170.52721
16300000000 0.5320915 132.89159 3.28491 -41.077553 0.085059226 -48.799877 0.413203 -171.52942
16400000000 0.53139776 131.3387 3.2854633 -42.358929 0.085006051 -49.484268 0.41256544 -172.60593
16500000000 0.53081739 129.87698 3.2851131 -43.627834 0.084684044 -50.188404 0.41187283 -173.64354
16600000000 0.52959168 128.4386 3.2883017 -44.920242 0.084223635 -50.675709 0.41134796 -174.73685
16700000000 0.52810049 126.80983 3.2899406 -46.236858 0.084143892 -51.32663 0.41091323 -175.8143
16800000000 0.52851361 125.21922 3.2896512 -47.539791 0.084046677 -52.0215 0.41064218 -176.91516
16900000000 0.52799249 123.84057 3.2908518 -48.834324 0.083954863 -52.603302 0.41027489 -177.96957
17000000000 0.52723664 122.31048 3.2927392 -50.125214 0.083562784 -53.301304 0.41021812 -179.0547
17100000000 0.52733773 120.65188 3.2928503 -51.451572 0.083392039 -53.844509 0.40902415 179.86391
17200000000 0.52703685 119.27368 3.296375 -52.740143 0.082987301 -54.551907 0.40906322 178.83264
17300000000 0.52522296 117.81699 3.2982352 -54.025059 0.082963623 -54.907917 0.40881869 177.76233
17400000000 0.52454704 116.10625 3.3000979 -55.372662 0.082487501 -55.751705 0.40856346 176.66852
17500000000 0.52578139 114.60342 3.3006592 -56.665089 0.082255833 -56.39072 0.40808213 175.56937
17600000000 0.52574092 113.19083 3.3046899 -57.953548 0.081981383 -57.113682 0.40753621 174.58612
17700000000 0.52520013 111.49369 3.307487 -59.279335 0.081581086 -57.810593 0.40699342 173.47974
17800000000 0.52621567 109.87621 3.3092444 -60.627117 0.081847116 -58.194935 0.4074679 172.45448
17900000000 0.52590191 108.53777 3.3130956 -61.919724 0.081162937 -58.898422 0.40724316 171.45985
18000000000 0.52432084 106.9517 3.3198254 -63.259575 0.08083576 -59.676785 0.40833935 170.38409
18100000000 0.52480125 105.22518 3.3228168 -64.588745 0.080700397 -60.191261 0.40814614 169.27844
18200000000 0.52602643 103.77505 3.3252668 -65.909042 0.080376625 -60.890373 0.40873444 168.18158
18300000000 0.52537793 102.31699 3.3305719 -67.264259 0.080045164 -61.553112 0.40889573 167.14665
18400000000 0.52573305 100.53489 3.3345869 -68.637756 0.079847544 -62.344219 0.4092381 166.0331
18500000000 0.52688229 99.082893 3.3365803 -69.96801 0.079555303 -63.08065 0.40957677 164.92105
18600000000 0.52643174 97.618546 3.3410556 -71.330673 0.079045996 -63.666637 0.40976304 163.77069
18700000000 0.5257526 95.900414 3.3465328 -72.670769 0.078900151 -64.241013 0.41029003 162.65677
18800000000 0.52696496 94.25264 3.351284 -74.031837 0.07886257 -64.89444 0.41090488 161.55014
18900000000 0.52763432 92.831627 3.356144 -75.39344 0.078154989 -65.626419 0.41135257 160.36688
19000000000 0.52746528 91.202988 3.3623075 -76.763519 0.077953994 -66.481842 0.41166991 159.24062
19100000000 0.52894843 89.530701 3.3670142 -78.163666 0.077380985 -66.799736 0.41226712 158.11465
19200000000 0.52940238 88.071556 3.3720896 -79.534813 0.076912239 -67.691772 0.41242823 156.94656
19300000000 0.52967286 86.437462 3.3788602 -80.933022 0.077025943 -68.483849 0.41320586 155.72818
19400000000 0.53011334 84.821068 3.3856263 -82.318748 0.076355569 -69.131935 0.41431403 154.56883
19500000000 0.53147215 83.25386 3.3908663 -83.724655 0.076135255 -69.755936 0.41437471 153.37233
19600000000 0.5318113 81.717468 3.3978748 -85.130623 0.076232508 -70.506081 0.41490397 152.19023
19700000000 0.53272498 79.981476 3.4035585 -86.552063 0.075702742 -71.252892 0.41541785 150.93575
19800000000 0.53419697 78.383202 3.4099433 -87.9561 0.075063288 -71.922226 0.41669804 149.78151
19900000000 0.5347054 76.717789 3.4179139 -89.38279 0.074999742 -72.606979 0.41741252 148.54968
20000000000 0.53657329 75.003677 3.422806 -90.842735 0.074457832 -73.776093 0.41702187 147.37228
20100000000 0.53788292 73.485123 3.4311638 -92.258972 0.07387577 -74.625763 0.41797733 146.21454
20200000000 0.53851467 71.836487 3.4382069 -93.701355 0.073641904 -75.193352 0.41880333 144.89313
20300000000 0.53924143 70.148849 3.4475126 -95.137833 0.073092349 -75.738861 0.41924569 143.72905
20400000000 0.54051954 68.530655 3.4560566 -96.631111 0.073048793 -76.758377 0.42035329 142.49062
20500000000 0.54053003 66.857994 3.4657047 -98.077713 0.072404772 -77.664047 0.42108592 141.20227
20600000000 0.54232967 64.933159 3.4752572 -99.596161 0.072064184 -78.618332 0.42182678 139.89896
20700000000 0.5454542 63.321243 3.4831955 -101.06498 0.071810268 -79.172249 0.42249569 138.72319
20800000000 0.5459764 61.787613 3.4910464 -102.54112 0.071233988 -80.027687 0.42319241 137.46173
20900000000 0.54679197 59.962013 3.5002379 -104.02493 0.070623092 -81.180664 0.42380774 136.26337
21000000000 0.54827082 58.359623 3.5100026 -105.53464 0.070169978 -82.009796 0.42440829 134.99037
21100000000 0.54864937 56.713711 3.5207162 -107.05217 0.069751419 -83.115791 0.42561018 133.72466
21200000000 0.54926848 54.85656 3.5296237 -108.60341 0.068992347 -83.981415 0.42642778 132.42921
21300000000 0.55252278 53.047531 3.5393527 -110.13826 0.068480335 -84.691238 0.42703569 131.0817
21400000000 0.55417055 51.444237 3.5494518 -111.64587 0.068154186 -85.876328 0.42829385 129.84732
21500000000 0.55509973 49.581387 3.561723 -113.20979 0.06748195 -86.827484 0.42910761 128.58412
21600000000 0.55655229 47.809422 3.5694776 -114.77704 0.066888191 -88.198029 0.42995304 127.2815
21700000000 0.55770576 46.213127 3.5800865 -116.36166 0.066396192 -89.001732 0.43108195 125.91406
21800000000 0.55779356 44.421215 3.5937114 -117.94331 0.065821536 -89.970299 0.43204895 124.64221
21900000000 0.56001949 42.480488 3.6031778 -119.55278 0.065237157 -90.965919 0.43219501 123.24003
22000000000 0.56254184 40.732918 3.6140928 -121.12529 0.064589418 -92.243126 0.43367732 121.98763
