! CEL
! CE3520K3
! N-channel HJ-FET
! Vds = 0 V Vgs = 0 V
# Hz S  MA   R 50
!      f          S11               S21               S12               S22
!    Hz      MAG      ANG      MAG      ANG      MAG      ANG      MAG      ANG
2000000000 1.0009602 -26.764088 0.014612281 95.270805 0.014771073 95.128708 0.71105236 152.79874
2100000000 1.0004106 -27.997009 0.015378387 95.547844 0.01550661 95.487556 0.71127522 151.47701
2200000000 1.0006353 -29.314899 0.016528206 95.553474 0.016138332 94.91877 0.71108538 150.13673
2300000000 1.0014901 -30.650707 0.017142011 94.589828 0.0174817 94.787468 0.71059674 148.77483
2400000000 1.0028155 -32.055111 0.018452564 94.884262 0.018460061 95.60125 0.71069896 147.47668
2500000000 1.0011208 -33.417042 0.019248903 94.383568 0.01927045 94.725731 0.71049666 146.07245
2600000000 0.9996438 -34.641212 0.020481847 94.51368 0.020420508 95.027153 0.71039087 144.78221
2700000000 0.99871838 -36.10815 0.021475723 94.353508 0.021645578 94.364235 0.71075302 143.45894
2800000000 0.99881035 -37.43306 0.022626985 93.933578 0.022726197 94.219345 0.71033072 142.13622
2900000000 0.99857366 -38.754765 0.023861706 93.277794 0.023806978 93.873314 0.71041596 140.78372
3000000000 0.99771571 -40.075123 0.02499016 92.955124 0.02490836 93.095688 0.71059436 139.43896
3100000000 0.99968135 -41.449963 0.026291946 92.712685 0.026088348 93.117416 0.710428 138.13481
3200000000 0.99885356 -42.881393 0.027528353 92.252686 0.027385691 92.674866 0.71066493 136.79944
3300000000 0.99860573 -44.187046 0.02873577 91.932465 0.028833123 92.099274 0.71062994 135.46651
3400000000 0.99724638 -45.531292 0.029863177 91.463112 0.030019596 91.65049 0.7105636 134.13965
3500000000 0.99804324 -46.945126 0.031410523 90.939278 0.031227598 90.868408 0.71075344 132.82988
3600000000 0.99837226 -48.353828 0.032750957 90.45903 0.032743476 90.206635 0.71107709 131.48814
3700000000 0.99808121 -49.684765 0.03398462 89.785606 0.034227263 90.098763 0.71109277 130.14758
3800000000 0.99704266 -51.027325 0.035484962 88.969757 0.035597216 89.321655 0.71106589 128.83069
3900000000 0.99764496 -52.434082 0.036687683 88.819855 0.036837928 88.377846 0.71155739 127.49324
4000000000 0.99618673 -53.821304 0.038316049 88.004539 0.038471796 87.766159 0.71149939 126.16048
4100000000 0.99621975 -55.155369 0.040054154 87.204681 0.039876956 87.088478 0.71167058 124.83153
4200000000 0.99614727 -56.592339 0.041357063 86.433975 0.041587345 86.683723 0.71184891 123.54089
4300000000 0.99574679 -57.888824 0.042996969 85.944328 0.042948373 85.996368 0.71208447 122.1908
4400000000 0.99549174 -59.295078 0.044480011 85.135849 0.044501629 85.267342 0.71162772 120.86084
4500000000 0.99441636 -60.785591 0.04584188 84.545677 0.045950089 84.408035 0.71265686 119.53272
4600000000 0.99269629 -62.095585 0.047526378 83.482834 0.047747761 83.785545 0.7127344 118.16982
4700000000 0.99286979 -63.342999 0.049224574 83.155411 0.04936602 83.065216 0.71268779 116.86551
4800000000 0.99287665 -64.902489 0.051054664 82.227646 0.05103847 82.062286 0.71302879 115.54052
4900000000 0.99200648 -66.265282 0.052494809 81.236481 0.052575331 81.321022 0.71304989 114.24068
5000000000 0.99185389 -67.631882 0.054384686 80.341423 0.05437319 80.705101 0.71323216 112.88584
5100000000 0.99161154 -69.060791 0.056258079 79.589417 0.056125455 79.749512 0.71352655 111.58426
5200000000 0.99065775 -70.422798 0.057811279 79.036644 0.057787545 78.974831 0.71387011 110.25535
5300000000 0.99058437 -71.824417 0.059769895 78.033501 0.059766721 77.942451 0.71373427 108.94238
5400000000 0.98987657 -73.21154 0.061269294 76.978333 0.061555635 77.306358 0.71411389 107.605
5500000000 0.98874885 -74.688583 0.063411623 76.077492 0.063356832 76.234016 0.71436328 106.28453
5600000000 0.98933148 -76.106178 0.065084897 75.211632 0.065121479 75.487427 0.7147218 105.0106
5700000000 0.98833591 -77.493401 0.067067899 74.163292 0.067204304 74.543678 0.71488327 103.6581
5800000000 0.98886734 -78.935936 0.068937995 73.36335 0.069209456 73.652161 0.71487737 102.36487
5900000000 0.98723209 -80.422531 0.070938013 72.612679 0.070981517 72.436592 0.71535569 101.0659
6000000000 0.98616868 -81.809662 0.072784036 71.418304 0.073182635 71.642227 0.71575212 99.725388
6100000000 0.98612076 -83.225014 0.074950308 70.433075 0.07483121 70.675026 0.71575767 98.399452
6200000000 0.98549819 -84.638939 0.076876819 69.622566 0.076784469 69.449341 0.71604186 97.110336
6300000000 0.98492348 -86.095284 0.079009011 68.529305 0.078877062 68.478844 0.71638131 95.770775
6400000000 0.98431551 -87.501961 0.081021138 67.470627 0.080822185 67.582001 0.71633428 94.45623
6500000000 0.98401296 -88.967522 0.082934767 66.299965 0.08301606 66.570549 0.71657348 93.20005
6600000000 0.98252118 -90.411621 0.084971264 65.402718 0.084964834 65.530609 0.71695113 91.855453
6700000000 0.98240089 -91.918594 0.087198377 64.359962 0.087042443 64.391472 0.71734828 90.547195
6800000000 0.98179871 -93.385155 0.089021578 63.17807 0.089165904 63.361843 0.71756881 89.272072
6900000000 0.98015648 -94.856194 0.091305539 62.210827 0.091188952 62.267578 0.71803612 87.961647
7000000000 0.98025656 -96.277 0.09333273 61.12693 0.093250088 61.075279 0.71809971 86.640312
7100000000 0.97834891 -97.689857 0.095419593 60.007427 0.095489569 60.140915 0.7186777 85.309097
7200000000 0.97815984 -99.235458 0.09764833 59.057079 0.097404286 59.048904 0.71882552 84.027969
7300000000 0.97787809 -100.69223 0.099438958 57.938793 0.0997243 58.017395 0.71867353 82.702469
7400000000 0.97662872 -102.17138 0.10159559 56.967407 0.10186327 56.922974 0.71942663 81.41996
7500000000 0.97538626 -103.67233 0.10381396 55.78664 0.10390125 55.782345 0.71967244 80.133949
7600000000 0.9752031 -105.16214 0.10581108 54.600323 0.10600747 54.673431 0.71942937 78.84893
7700000000 0.9735387 -106.61684 0.10813833 53.607948 0.10805197 53.647934 0.71990991 77.532509
7800000000 0.97301513 -108.0957 0.11017521 52.426365 0.11014732 52.550968 0.72038245 76.290688
7900000000 0.97169811 -109.61331 0.11255614 51.329601 0.112454 51.556938 0.72014332 74.966576
8000000000 0.97084105 -111.16518 0.11473932 50.388561 0.1151868 50.406738 0.72037703 73.713654
8100000000 0.96955758 -112.53719 0.11711598 49.103741 0.11709034 49.316875 0.72086054 72.374397
8200000000 0.96874464 -114.0673 0.11941867 48.056248 0.11941031 48.143017 0.72128451 71.109299
8300000000 0.96873575 -115.62679 0.12211326 46.881268 0.12184822 47.035892 0.72126812 69.852997
8400000000 0.96643668 -117.10114 0.12432707 45.64381 0.12422473 45.690987 0.72197366 68.535133
8500000000 0.96618122 -118.5756 0.12684791 44.45517 0.12646413 44.678783 0.72223306 67.284561
8600000000 0.96509045 -120.13206 0.12879589 43.255226 0.12895051 43.357502 0.7224043 65.963173
8700000000 0.96532631 -121.6405 0.13123618 42.075169 0.13117363 42.180008 0.72242415 64.715179
8800000000 0.96368724 -123.08233 0.13341713 40.942425 0.1336223 41.022747 0.72329849 63.407379
8900000000 0.96304947 -124.66485 0.13553332 39.55191 0.13585661 39.752598 0.72309381 62.153542
9000000000 0.96277654 -126.24829 0.13812396 38.366913 0.13818945 38.461475 0.7231791 60.859501
9100000000 0.96235675 -127.65793 0.14022091 37.128044 0.14016706 37.200367 0.72302955 59.559467
9200000000 0.96180546 -129.2605 0.14276139 35.96373 0.14277019 35.976871 0.72365206 58.2999
9300000000 0.96187985 -130.88525 0.14494523 34.589634 0.14502582 34.698635 0.72366637 57.059998
9400000000 0.96249366 -132.44814 0.14730914 33.35561 0.1473421 33.401909 0.72385299 55.795631
9500000000 0.96189445 -134.04242 0.14909574 32.039734 0.14966144 32.079514 0.72370356 54.567429
9600000000 0.95948821 -135.75237 0.15144345 30.789312 0.15123945 30.808128 0.72506034 53.316628
9700000000 0.95858121 -137.35434 0.15352823 29.439604 0.15393072 29.502655 0.72519535 52.013603
9800000000 0.957039 -138.88579 0.15642285 28.349613 0.15591083 28.403845 0.72547966 50.766457
9900000000 0.95501715 -140.53136 0.15816006 26.909357 0.15805742 26.981127 0.72561014 49.505402
10000000000 0.95428431 -142.12698 0.16013484 25.686068 0.16006555 25.73464 0.72564811 48.225079
10100000000 0.95459062 -143.64371 0.16258828 24.291719 0.162457 24.330784 0.72517067 47.020012
10200000000 0.95293033 -145.24469 0.16414745 23.009327 0.16451548 23.2383 0.72560376 45.734028
10300000000 0.95232737 -146.88489 0.16629353 21.705786 0.16648349 21.827211 0.72540027 44.5373
10400000000 0.95181936 -148.59978 0.16838181 20.458916 0.16866016 20.513676 0.72583205 43.360119
10500000000 0.95004427 -150.22383 0.1705178 19.211502 0.17040502 19.298849 0.72672993 42.120682
10600000000 0.94850659 -151.86044 0.17258236 18.009836 0.17213167 17.974531 0.72698206 40.868931
10700000000 0.94743299 -153.491 0.17422996 16.584026 0.17449027 16.702833 0.72759384 39.660835
10800000000 0.9457643 -155.10088 0.17622584 15.265106 0.17656353 15.462886 0.72805816 38.41748
10900000000 0.94489145 -156.74416 0.17835118 14.092749 0.17860959 14.088178 0.7289834 37.166759
11000000000 0.94354999 -158.38274 0.18025587 12.774856 0.18015748 12.841153 0.72846401 35.929535
11100000000 0.9427734 -160.0661 0.18200076 11.430211 0.18224783 11.500183 0.72919214 34.693504
11200000000 0.94132751 -161.71394 0.184168 10.099115 0.18398373 10.231091 0.72932965 33.446533
11300000000 0.94043922 -163.36084 0.18623805 8.7560759 0.18660429 8.8520632 0.72914749 32.225456
11400000000 0.9385969 -165.05461 0.18810445 7.5114751 0.1882911 7.5722423 0.7297973 30.993473
11500000000 0.9383232 -166.7473 0.18978505 6.0286818 0.18976758 6.18961 0.73025656 29.768547
11600000000 0.93614018 -168.34923 0.19163124 4.7826729 0.19164447 4.8878651 0.73041677 28.541874
11700000000 0.93528003 -170.07703 0.19341306 3.4626906 0.1933752 3.5424585 0.73064953 27.318893
11800000000 0.9343363 -171.81096 0.19542798 2.2040589 0.19551076 2.168731 0.73120248 26.135344
11900000000 0.93311697 -173.43892 0.19685882 0.80021846 0.19710505 0.91429651 0.73148733 24.880909
12000000000 0.93128294 -175.12611 0.19891019 -0.56299049 0.19911431 -0.60586327 0.7316348 23.66708
12100000000 0.93065578 -176.87096 0.200507 -1.9889919 0.20040886 -1.8107195 0.73187876 22.43676
12200000000 0.92955631 -178.56151 0.20225601 -3.3372471 0.20225754 -3.1444261 0.73220694 21.223909
12300000000 0.92793733 179.77496 0.20402031 -4.62187 0.20359297 -4.5374732 0.73284459 20.048288
12400000000 0.92686033 178.04382 0.2054619 -5.9403019 0.2054995 -5.9120879 0.7330997 18.809685
12500000000 0.92619908 176.30043 0.20716442 -7.4124746 0.20724888 -7.3014612 0.73325568 17.6222
12600000000 0.92527997 174.61722 0.20854433 -8.7462826 0.20859484 -8.6755743 0.73422992 16.415043
12700000000 0.92451811 172.85747 0.21021217 -10.07869 0.21008638 -9.9326143 0.73341864 15.223557
12800000000 0.92313153 171.11664 0.21163887 -11.480268 0.2116749 -11.395795 0.73415166 13.957621
12900000000 0.92201954 169.41072 0.21305801 -12.881065 0.21288839 -12.744448 0.73389405 12.779421
13000000000 0.920578 167.68936 0.21454956 -14.307487 0.21445189 -14.154659 0.73421395 11.594344
13100000000 0.9195447 165.89919 0.21558119 -15.693928 0.21603508 -15.616508 0.73465157 10.393294
13200000000 0.91920936 164.18542 0.21740247 -17.051386 0.21708179 -16.950712 0.73457915 9.1810236
13300000000 0.91786033 162.47855 0.21855237 -18.471775 0.218549 -18.320587 0.73488545 7.9589968
13400000000 0.91656435 160.70175 0.21980993 -19.773327 0.22004351 -19.807169 0.73476994 6.7996206
13500000000 0.91537887 158.95703 0.22074811 -21.203638 0.22094762 -21.16625 0.73509657 5.6190057
13600000000 0.91455239 157.19513 0.22205128 -22.742523 0.22212276 -22.563889 0.73528636 4.3960924
13700000000 0.91314983 155.43773 0.22336049 -24.084314 0.22314812 -24.015732 0.73587239 3.1805201
13800000000 0.91250938 153.6947 0.22452836 -25.610142 0.22435309 -25.445545 0.73565459 2.0424521
13900000000 0.91166228 151.90228 0.22575927 -27.04318 0.225004 -26.909731 0.73600245 0.8254751
14000000000 0.91054463 150.19868 0.22615677 -28.472319 0.22616428 -28.318075 0.73607045 -0.33441824
14100000000 0.90966398 148.44704 0.22665444 -29.778692 0.22669193 -29.662996 0.73707741 -1.4901363
14200000000 0.9088164 146.65305 0.2275952 -31.246201 0.22765324 -31.080725 0.73767143 -2.6519463
14300000000 0.90837723 144.83165 0.22814783 -32.641598 0.22847027 -32.554012 0.73789001 -3.7761641
14400000000 0.90768433 143.08905 0.22927806 -33.999523 0.22898082 -33.912827 0.73864985 -4.9873776
14500000000 0.90683889 141.28868 0.23012619 -35.408211 0.22977345 -35.283848 0.73895156 -6.1667037
14600000000 0.90604496 139.48196 0.23047313 -36.822956 0.230314 -36.780525 0.73930562 -7.3915658
14700000000 0.90550542 137.74303 0.23134926 -38.245735 0.23093724 -38.100796 0.73950565 -8.5832977
14800000000 0.9044522 135.94406 0.23201844 -39.67178 0.2319905 -39.506153 0.73978347 -9.7712393
14900000000 0.90365785 134.09125 0.23238236 -41.054581 0.23239915 -40.913998 0.74037755 -10.962664
15000000000 0.90367937 132.25383 0.23293135 -42.578739 0.23299566 -42.510971 0.74035394 -12.13428
15100000000 0.9020673 130.53438 0.23328789 -43.944645 0.23336539 -43.864227 0.74073529 -13.340801
15200000000 0.90129572 128.72055 0.23366305 -45.334793 0.2341039 -45.267494 0.74196053 -14.527606
15300000000 0.90113908 126.933 0.23428571 -46.913296 0.23438323 -46.725517 0.74159873 -15.777572
15400000000 0.90018344 125.13634 0.23454423 -48.321514 0.23450287 -48.15094 0.741983 -16.961029
15500000000 0.89994746 123.32588 0.23496653 -49.85112 0.23499481 -49.581562 0.74206603 -18.147184
15600000000 0.89868438 121.46776 0.23526499 -51.207558 0.23492579 -51.070595 0.74222058 -19.35861
15700000000 0.89904475 119.65082 0.23542021 -52.666042 0.23520616 -52.572449 0.74210989 -20.508778
15800000000 0.89796698 117.87948 0.23555689 -54.146057 0.23564871 -53.96983 0.74236453 -21.713316
15900000000 0.8971445 116.07818 0.2355912 -55.60799 0.23571305 -55.449234 0.74237716 -22.876429
16000000000 0.89605296 114.22189 0.23551752 -57.106266 0.23571882 -56.85783 0.74278307 -24.081129
16100000000 0.89587986 112.3996 0.23565732 -58.485126 0.23569009 -58.44595 0.74266535 -25.256857
16200000000 0.89516038 110.65203 0.23580791 -59.943703 0.23563884 -59.869026 0.74319857 -26.408989
16300000000 0.89445847 108.82886 0.23572421 -61.42654 0.23579918 -61.22464 0.74418259 -27.568344
16400000000 0.89404482 106.99537 0.23571882 -62.8787 0.23549002 -62.777035 0.74458539 -28.719013
16500000000 0.89361507 105.24998 0.23531912 -64.330078 0.2354605 -64.205162 0.74535871 -29.901968
16600000000 0.89304519 103.42044 0.23544513 -65.85601 0.23557794 -65.724693 0.74528885 -31.084629
16700000000 0.89198178 101.4791 0.23517558 -67.369476 0.23516062 -67.211655 0.74583888 -32.288483
16800000000 0.89251643 99.665161 0.23494926 -68.808701 0.23483865 -68.710419 0.74641192 -33.472778
16900000000 0.89211404 97.96241 0.23457694 -70.321541 0.23466685 -70.16552 0.74681377 -34.677608
17000000000 0.89153886 96.116524 0.23403759 -71.865089 0.23418178 -71.740135 0.74733949 -35.896069
17100000000 0.8914938 94.233734 0.23356579 -73.42141 0.23376149 -73.200203 0.74745846 -37.070648
17200000000 0.89048982 92.523262 0.23333158 -74.796799 0.23328008 -74.641426 0.74860084 -38.281887
17300000000 0.88877201 90.68486 0.23277274 -76.378456 0.23306896 -76.233299 0.7487905 -39.478958
17400000000 0.88888311 88.745033 0.23212287 -77.915039 0.23238623 -77.72921 0.74930608 -40.687492
17500000000 0.88903433 87.029633 0.23166929 -79.426659 0.23157683 -79.272026 0.74970114 -41.938122
17600000000 0.88835239 85.269836 0.23060477 -80.958878 0.23088171 -80.721489 0.75038743 -43.142544
17700000000 0.88863605 83.306801 0.23015693 -82.444016 0.23013271 -82.34127 0.75124288 -44.284065
17800000000 0.88901341 81.517021 0.22907878 -84.045341 0.22923754 -83.810257 0.75152653 -45.603287
17900000000 0.8872683 79.834274 0.22825696 -85.479965 0.22836523 -85.255707 0.75224149 -46.79237
18000000000 0.88628548 77.947182 0.22779842 -86.949409 0.2279958 -86.884659 0.75335199 -48.058044
18100000000 0.8864916 76.06147 0.22721677 -88.503799 0.22678816 -88.374428 0.75431818 -49.2878
18200000000 0.88668299 74.360687 0.22615513 -90.019989 0.22583352 -89.875084 0.75439489 -50.562717
18300000000 0.88571531 72.545761 0.22545381 -91.591087 0.22538276 -91.423676 0.7550903 -51.819496
18400000000 0.88589621 70.622887 0.22438382 -93.165466 0.2244942 -92.942833 0.75551808 -53.056824
18500000000 0.88629681 68.933609 0.22333163 -94.649307 0.22331391 -94.506927 0.75575268 -54.300934
18600000000 0.88505453 67.1381 0.22239743 -96.257904 0.22231403 -96.056702 0.75546116 -55.56115
18700000000 0.8846122 65.206657 0.22130664 -97.771278 0.2211539 -97.629799 0.75592375 -56.806915
18800000000 0.88515729 63.407932 0.22016862 -99.380653 0.22021386 -99.2369 0.75637507 -58.057407
18900000000 0.88380587 61.689484 0.21906281 -100.8429 0.21914686 -100.69884 0.75633234 -59.284702
19000000000 0.88360459 59.827122 0.21760632 -102.50024 0.21778318 -102.33309 0.7571972 -60.549431
19100000000 0.88429737 57.999672 0.21657568 -104.06925 0.21659616 -103.88163 0.75689805 -61.78019
19200000000 0.88354546 56.246651 0.2154793 -105.70786 0.21529037 -105.37022 0.75752407 -63.032635
19300000000 0.88290805 54.385494 0.21411 -107.25171 0.21415034 -107.00123 0.75812316 -64.294098
19400000000 0.88203406 52.544781 0.21281803 -108.80273 0.21298411 -108.70649 0.75896919 -65.59568
19500000000 0.88189721 50.801464 0.21139342 -110.39058 0.21139435 -110.20267 0.75900018 -66.857742
19600000000 0.88129604 48.977879 0.21043217 -112.07249 0.21026334 -111.79447 0.75916034 -68.12822
19700000000 0.88132405 47.128441 0.20856152 -113.61012 0.20865428 -113.40261 0.75920022 -69.443794
19800000000 0.88087982 45.358459 0.20716842 -115.20639 0.2073507 -114.99311 0.75981754 -70.692787
19900000000 0.88025159 43.536438 0.20585406 -116.86843 0.20577438 -116.71579 0.76023674 -71.957321
20000000000 0.88080525 41.685066 0.2042754 -118.50772 0.20416294 -118.27141 0.76037174 -73.287933
20100000000 0.88031882 39.966248 0.20297757 -120.02618 0.20293857 -119.88889 0.76159358 -74.572693
20200000000 0.87984395 38.147972 0.20117725 -121.69064 0.20158851 -121.51122 0.76134002 -75.869301
20300000000 0.87926382 36.289017 0.19988851 -123.24995 0.19991325 -123.10014 0.76251113 -77.075386
20400000000 0.87886757 34.541 0.19863711 -124.9987 0.19868624 -124.82124 0.76313198 -78.490036
20500000000 0.87773836 32.639286 0.19698879 -126.53669 0.19736403 -126.50199 0.7642144 -79.747452
20600000000 0.87927979 30.710262 0.19557427 -128.30791 0.19567254 -128.18564 0.76484686 -81.062279
20700000000 0.87991029 29.044523 0.19370914 -130.02066 0.19380903 -129.64497 0.76519948 -82.349304
20800000000 0.87820619 27.24818 0.19238774 -131.6286 0.1923355 -131.48801 0.76604939 -83.697578
20900000000 0.87859523 25.365322 0.19079398 -133.33379 0.19085069 -133.12587 0.76660228 -85.013245
21000000000 0.87761009 23.616474 0.18926832 -134.99887 0.18946874 -134.77983 0.76726627 -86.341408
21100000000 0.87599283 21.766359 0.18778023 -136.67972 0.18784754 -136.54721 0.76776773 -87.656166
21200000000 0.87573987 19.80999 0.18615013 -138.42903 0.18623056 -138.29095 0.76795745 -89.030899
21300000000 0.87732911 18.033134 0.18469712 -140.11723 0.18458183 -139.93973 0.7693662 -90.343658
21400000000 0.87685812 16.256342 0.18331593 -141.83327 0.18337196 -141.6669 0.76974213 -91.711906
21500000000 0.87675822 14.386145 0.18136373 -143.53654 0.18116479 -143.4118 0.77071697 -93.092697
21600000000 0.87606323 12.537065 0.17990787 -145.37807 0.17994468 -145.11565 0.77056146 -94.457176
21700000000 0.87440777 10.832784 0.17825632 -147.07602 0.1785368 -146.82463 0.7721414 -95.834732
21800000000 0.87336195 8.8908291 0.17691845 -148.80046 0.17650968 -148.6846 0.77258325 -97.211464
21900000000 0.87388903 7.002398 0.17497624 -150.61595 0.17534781 -150.35271 0.7730903 -98.521896
22000000000 0.87436497 5.2251701 0.17357515 -152.36011 0.1734723 -152.17986 0.77339393 -99.990837
